
T1824 000:287 SEGGER J-Link V4.98e Log File (0000ms, 0261ms total)
T1824 000:287 DLL Compiled: May  5 2015 11:00:52 (0001ms, 0262ms total)
T1824 000:287 Logging started @ 2016-08-26 09:18 (0001ms, 0262ms total)
T1824 000:288 JLINK_SetWarnOutHandler(...) (0000ms, 0262ms total)
T1824 000:288 JLINK_OpenEx(...)
Firmware: J-Link ARM-OB STM32 compiled Aug 22 2012 19:52:04
Hardware: V7.00
S/N: 20090928
Feature(s): RDI,FlashDL,FlashBP,JFlash,GDBFULL  returns O.K. (0264ms, 0526ms total)
T1824 000:552 JLINK_SetErrorOutHandler(...) (0000ms, 0526ms total)
T1824 000:552 JLINK_ExecCommand("ProjectFile = "F:\robotmasters\code\my\Infantry_HZW For Finals\MDK\JLinkSettings.ini"", ...)Device "STM32F405RG" selected.  returns 0x00 (0005ms, 0531ms total)
T1824 000:557 JLINK_ExecCommand("Device = STM32F405RGTx", ...)Device "STM32F405RG" selected.  returns 0x00 (0004ms, 0535ms total)
T1824 000:561 JLINK_ExecCommand("DisableConnectionTimeout", ...)  returns 0x01 (0000ms, 0535ms total)
T1824 000:561 JLINK_GetHardwareVersion()  returns 0x11170 (0000ms, 0535ms total)
T1824 000:561 JLINK_GetDLLVersion()  returns 49805 (0000ms, 0535ms total)
T1824 000:561 JLINK_GetFirmwareString(...) (0000ms, 0535ms total)
T1824 000:564 JLINK_GetDLLVersion()  returns 49805 (0000ms, 0535ms total)
T1824 000:564 JLINK_GetCompileDateTime() (0000ms, 0535ms total)
T1824 000:565 JLINK_GetFirmwareString(...) (0000ms, 0535ms total)
T1824 000:565 JLINK_GetHardwareVersion()  returns 0x11170 (0000ms, 0535ms total)
T1824 000:569 JLINK_TIF_Select(JLINKARM_TIF_SWD)  returns 0x00 (0000ms, 0535ms total)
T1824 000:569 JLINK_SetSpeed(5000) (0001ms, 0536ms total)
T1824 000:570 JLINK_GetId() >0x108 TIF>Found SWD-DP with ID 0x2BA01477 >0x0D TIF> >0x28 TIF> >0x0D TIF> >0x28 TIF> >0x0D TIF> >0x21 TIF> >0x0D TIF> >0x28 TIF> >0x0D TIF> >0x28 TIF> >0x0D TIF> >0x28 TIF> >0x0D TIF> >0x21 TIF> >0x0D TIF> >0x21 TIF> >0x0D TIF> >0x28 TIF> >0x0D TIF> >0x21 TIF> >0x0D TIF> >0x21 TIF> >0x0D TIF> >0x28 TIF> >0x0D TIF> >0x21 TIF> >0x0D TIF> >0x21 TIF> >0x108 TIF>Found SWD-DP with ID 0x2BA01477 >0x0D TIF> >0x21 TIF> >0x0D TIF> >0x28 TIF> >0x0D TIF> >0x28 TIF> >0x0D TIF> >0x21 TIF>
 >0x0D TIF> >0x28 TIF> >0x0D TIF> >0x21 TIF> >0x0D TIF> >0x21 TIF> >0x0D TIF> >0x21 TIF> >0x0D TIF> >0x21 TIF> >0x0D TIF> >0x28 TIF> >0x0D TIF> >0x28 TIF> >0x0D TIF> >0x21 TIF> >0x0D TIF> >0x28 TIF> >0x0D TIF> >0x28 TIF> >0x0D TIF> >0x28 TIF> >0x0D TIF> >0x21 TIF> >0x0D TIF> >0x21 TIF> >0x0D TIF> >0x28 TIF> >0x0D TIF> >0x21 TIF> >0x0D TIF> >0x21 TIF>Found Cortex-M4 r0p1, Little endian. -- CPU_WriteMem(4 bytes @ 0xE0002000) -- CPU_ReadMem(4 bytes @ 0xE000EDF0) -- CPU_ReadMem(4 bytes @ 0xE0002000)
FPUnit: 6 code (BP) slots and 2 literal slots -- CPU_ReadMem(4 bytes @ 0xE000EDFC) -- CPU_ReadMem(4 bytes @ 0xE0001000) -- CPU_WriteMem(4 bytes @ 0xE0001000) -- CPU_ReadMem(4 bytes @ 0xE000ED88) -- CPU_WriteMem(4 bytes @ 0xE000ED88) -- CPU_ReadMem(4 bytes @ 0xE000ED88) -- CPU_WriteMem(4 bytes @ 0xE000ED88)CoreSight components:ROMTbl 0 @ E00FF000 -- CPU_ReadMem(16 bytes @ 0xE00FF000) -- CPU_ReadMem(16 bytes @ 0xE000EFF0) -- CPU_ReadMem(16 bytes @ 0xE000EFE0)
ROMTbl 0 [0]: FFF0F000, CID: B105E00D, PID: 000BB00C SCS -- CPU_ReadMem(16 bytes @ 0xE0001FF0) -- CPU_ReadMem(16 bytes @ 0xE0001FE0)ROMTbl 0 [1]: FFF02000, CID: B105E00D, PID: 003BB002 DWT -- CPU_ReadMem(16 bytes @ 0xE0002FF0) -- CPU_ReadMem(16 bytes @ 0xE0002FE0)ROMTbl 0 [2]: FFF03000, CID: B105E00D, PID: 002BB003 FPB -- CPU_ReadMem(16 bytes @ 0xE0000FF0) -- CPU_ReadMem(16 bytes @ 0xE0000FE0)ROMTbl 0 [3]: FFF01000, CID: B105E00D, PID: 003BB001 ITM -- CPU_ReadMem(16 bytes @ 0xE00FF010)
 -- CPU_ReadMem(16 bytes @ 0xE0040FF0) -- CPU_ReadMem(16 bytes @ 0xE0040FE0)ROMTbl 0 [4]: FFF41000, CID: B105900D, PID: 000BB9A1 TPIU -- CPU_ReadMem(16 bytes @ 0xE0041FF0) -- CPU_ReadMem(16 bytes @ 0xE0041FE0)ROMTbl 0 [5]: FFF42000, CID: B105900D, PID: 000BB925 ETM >0x0D TIF> >0x21 TIF>  returns 0x2BA01477 (0039ms, 0575ms total)
T1824 000:609 JLINK_GetDLLVersion()  returns 49805 (0000ms, 0575ms total)
T1824 000:609 JLINK_CORE_GetFound()  returns 0xE0000FF (0000ms, 0575ms total)
T1824 000:609 JLINK_GetDebugInfo(0x100) -- Value=0xE00FF003  returns 0x00 (0000ms, 0575ms total)
T1824 000:609 JLINK_ReadMem (0xE00FF000, 0x0020 Bytes, ...) -- CPU is running -- CPU_ReadMem(32 bytes @ 0xE00FF000) - Data: 03 F0 F0 FF 03 20 F0 FF 03 30 F0 FF 03 10 F0 FF ...  returns 0x00 (0001ms, 0576ms total)
T1824 000:610 JLINK_ReadMem (0xE000EFF0, 0x0010 Bytes, ...) -- CPU is running -- CPU_ReadMem(16 bytes @ 0xE000EFF0) - Data: 0D 00 00 00 E0 00 00 00 05 00 00 00 B1 00 00 00  returns 0x00 (0001ms, 0577ms total)
T1824 000:611 JLINK_ReadMem (0xE000EFD0, 0x0020 Bytes, ...) -- CPU is running -- CPU_ReadMem(32 bytes @ 0xE000EFD0) - Data: 04 00 00 00 00 00 00 00 00 00 00 00 00 00 00 00 ...  returns 0x00 (0001ms, 0578ms total)
T1824 000:612 JLINK_ReadMem (0xE0001FF0, 0x0010 Bytes, ...) -- CPU is running -- CPU_ReadMem(16 bytes @ 0xE0001FF0) - Data: 0D 00 00 00 E0 00 00 00 05 00 00 00 B1 00 00 00  returns 0x00 (0001ms, 0579ms total)
T1824 000:613 JLINK_ReadMem (0xE0001FD0, 0x0020 Bytes, ...) -- CPU is running -- CPU_ReadMem(32 bytes @ 0xE0001FD0) - Data: 04 00 00 00 00 00 00 00 00 00 00 00 00 00 00 00 ...  returns 0x00 (0001ms, 0580ms total)
T1824 000:614 JLINK_ReadMem (0xE0002FF0, 0x0010 Bytes, ...) -- CPU is running -- CPU_ReadMem(16 bytes @ 0xE0002FF0) - Data: 0D 00 00 00 E0 00 00 00 05 00 00 00 B1 00 00 00  returns 0x00 (0001ms, 0581ms total)
T1824 000:615 JLINK_ReadMem (0xE0002FD0, 0x0020 Bytes, ...) -- CPU is running -- CPU_ReadMem(32 bytes @ 0xE0002FD0) - Data: 04 00 00 00 00 00 00 00 00 00 00 00 00 00 00 00 ...  returns 0x00 (0001ms, 0582ms total)
T1824 000:616 JLINK_ReadMem (0xE0000FF0, 0x0010 Bytes, ...) -- CPU is running -- CPU_ReadMem(16 bytes @ 0xE0000FF0) - Data: 0D 00 00 00 E0 00 00 00 05 00 00 00 B1 00 00 00  returns 0x00 (0001ms, 0583ms total)
T1824 000:617 JLINK_ReadMem (0xE0000FD0, 0x0020 Bytes, ...) -- CPU is running -- CPU_ReadMem(32 bytes @ 0xE0000FD0) - Data: 04 00 00 00 00 00 00 00 00 00 00 00 00 00 00 00 ...  returns 0x00 (0000ms, 0583ms total)
T1824 000:617 JLINK_ReadMem (0xE0040FF0, 0x0010 Bytes, ...) -- CPU is running -- CPU_ReadMem(16 bytes @ 0xE0040FF0) - Data: 0D 00 00 00 90 00 00 00 05 00 00 00 B1 00 00 00  returns 0x00 (0001ms, 0584ms total)
T1824 000:618 JLINK_ReadMem (0xE0040FD0, 0x0020 Bytes, ...) -- CPU is running -- CPU_ReadMem(32 bytes @ 0xE0040FD0) - Data: 04 00 00 00 00 00 00 00 00 00 00 00 00 00 00 00 ...  returns 0x00 (0002ms, 0586ms total)
T1824 000:620 JLINK_ReadMem (0xE0041FF0, 0x0010 Bytes, ...) -- CPU is running -- CPU_ReadMem(16 bytes @ 0xE0041FF0) - Data: 0D 00 00 00 90 00 00 00 05 00 00 00 B1 00 00 00  returns 0x00 (0001ms, 0587ms total)
T1824 000:621 JLINK_ReadMem (0xE0041FD0, 0x0020 Bytes, ...) -- CPU is running -- CPU_ReadMem(32 bytes @ 0xE0041FD0) - Data: 04 00 00 00 00 00 00 00 00 00 00 00 00 00 00 00 ...  returns 0x00 (0001ms, 0588ms total)
T1824 000:622 JLINK_ReadMemU32(0xE000EF40, 0x0001 Items, ...) -- CPU is running -- CPU_ReadMem(4 bytes @ 0xE000EF40) - Data: 21 00 11 10  returns 0x01 (0000ms, 0588ms total)
T1824 000:622 JLINK_ReadMemU32(0xE000EF44, 0x0001 Items, ...) -- CPU is running -- CPU_ReadMem(4 bytes @ 0xE000EF44) - Data: 11 00 00 11  returns 0x01 (0002ms, 0590ms total)
T1824 000:624 JLINK_ReadMemU32(0xE000ED00, 0x0001 Items, ...) -- CPU is running -- CPU_ReadMem(4 bytes @ 0xE000ED00) - Data: 41 C2 0F 41  returns 0x01 (0000ms, 0590ms total)
T1824 000:624 JLINK_SetResetType(JLINKARM_RESET_TYPE_NORMAL)  returns JLINKARM_RESET_TYPE_NORMAL (0000ms, 0590ms total)
T1824 000:624 JLINK_Reset() -- CPU is running -- CPU_WriteMem(4 bytes @ 0xE000EDF0) -- CPU is running -- CPU_WriteMem(4 bytes @ 0xE000EDFC) >0x35 TIF> -- CPU is running -- CPU_WriteMem(4 bytes @ 0xE000ED0C) -- CPU is running -- CPU_ReadMem(4 bytes @ 0xE000EDF0) -- CPU is running -- CPU_ReadMem(4 bytes @ 0xE000EDF0) -- CPU is running -- CPU_WriteMem(4 bytes @ 0xE000EDF0) -- CPU is running -- CPU_WriteMem(4 bytes @ 0xE000EDFC) -- CPU is running -- CPU_ReadMem(4 bytes @ 0xE000EDF0)
 -- CPU_WriteMem(4 bytes @ 0xE0002000) -- CPU_ReadMem(4 bytes @ 0xE000EDFC) -- CPU_ReadMem(4 bytes @ 0xE0001000) (0021ms, 0611ms total)
T1824 000:645 JLINK_ReadReg(R15 (PC))  returns 0x080003D4 (0000ms, 0611ms total)
T1824 000:645 JLINK_ReadReg(XPSR)  returns 0x01000000 (0000ms, 0611ms total)
T1824 000:645 JLINK_Halt()  returns 0x00 (0000ms, 0611ms total)
T1824 000:645 JLINK_IsHalted()  returns TRUE (0000ms, 0611ms total)
T1824 000:645 JLINK_ReadMemU32(0xE000EDF0, 0x0001 Items, ...) -- CPU_ReadMem(4 bytes @ 0xE000EDF0) - Data: 03 00 03 00  returns 0x01 (0001ms, 0612ms total)
T1824 000:646 JLINK_WriteU32(0xE000EDF0, 0xA05F0003) -- CPU_WriteMem(4 bytes @ 0xE000EDF0)  returns 0x00 (0001ms, 0613ms total)
T1824 000:647 JLINK_WriteU32(0xE000EDFC, 0x01000000) -- CPU_WriteMem(4 bytes @ 0xE000EDFC)  returns 0x00 (0000ms, 0613ms total)
T1824 000:648 JLINK_GetHWStatus(...)  returns 0x00 (0001ms, 0614ms total)
T1824 000:649 JLINK_GetNumBPUnits(Type = 0xFFFFFF00)  returns 0x06 (0000ms, 0614ms total)
T1824 000:649 JLINK_GetNumBPUnits(Type = 0xF0)  returns 0x2000 (0000ms, 0614ms total)
T1824 000:649 JLINK_GetNumWPUnits()  returns 0x04 (0000ms, 0614ms total)
T1824 000:650 JLINK_GetSpeed()  returns 0xFA0 (0000ms, 0614ms total)
T1824 000:650 JLINK_ReadMemU32(0xE000E004, 0x0001 Items, ...) -- CPU_ReadMem(4 bytes @ 0xE000E004) - Data: 02 00 00 00  returns 0x01 (0001ms, 0615ms total)
T1824 000:651 JLINK_ReadMemU32(0xE000E004, 0x0001 Items, ...) -- CPU_ReadMem(4 bytes @ 0xE000E004) - Data: 02 00 00 00  returns 0x01 (0000ms, 0615ms total)
T1824 000:652 JLINK_WriteMem(0xE0001000, 0x001C Bytes, ...) - Data: 01 00 00 00 00 00 00 00 00 00 00 00 00 00 00 00 ... -- CPU_WriteMem(28 bytes @ 0xE0001000)  returns 0x1C (0003ms, 0618ms total)
T1824 000:655 JLINK_ReadMem (0xE0001000, 0x001C Bytes, ...) -- CPU_ReadMem(28 bytes @ 0xE0001000) - Data: 01 00 00 40 00 00 00 00 00 00 00 00 00 00 00 00 ...  returns 0x00 (0001ms, 0619ms total)
T1824 000:656 JLINK_ReadReg(R15 (PC))  returns 0x080003D4 (0000ms, 0619ms total)
T1824 000:656 JLINK_ReadReg(XPSR)  returns 0x01000000 (0000ms, 0619ms total)
T1824 000:808 JLINK_SetResetType(JLINKARM_RESET_TYPE_NORMAL)  returns JLINKARM_RESET_TYPE_NORMAL (0000ms, 0619ms total)
T1824 000:808 JLINK_Reset() -- CPU_WriteMem(4 bytes @ 0xE000EDF0) -- CPU_WriteMem(4 bytes @ 0xE000EDFC) >0x35 TIF> -- CPU_WriteMem(4 bytes @ 0xE000ED0C) -- CPU_ReadMem(4 bytes @ 0xE000EDF0) -- CPU_ReadMem(4 bytes @ 0xE000EDF0) -- CPU_WriteMem(4 bytes @ 0xE000EDF0) -- CPU_WriteMem(4 bytes @ 0xE000EDFC) -- CPU is running -- CPU_ReadMem(4 bytes @ 0xE000EDF0) -- CPU_WriteMem(4 bytes @ 0xE0002000) -- CPU_ReadMem(4 bytes @ 0xE000EDFC) -- CPU_ReadMem(4 bytes @ 0xE0001000) (0021ms, 0640ms total)
T1824 000:829 JLINK_ReadReg(R15 (PC))  returns 0x080003D4 (0000ms, 0640ms total)
T1824 000:829 JLINK_ReadReg(XPSR)  returns 0x01000000 (0000ms, 0640ms total)
T1824 001:074 JLINK_ReadMem (0x080003D4, 0x002C Bytes, ...) -- CPU_ReadMem(64 bytes @ 0x080003C0) -- Updating C cache (64 bytes @ 0x080003C0) -- Read from C cache (44 bytes @ 0x080003D4) - Data: 09 48 80 47 09 48 00 47 FE E7 FE E7 FE E7 FE E7 ...  returns 0x00 (0002ms, 0642ms total)
T1824 001:076 JLINK_ReadMem (0x08000400, 0x0010 Bytes, ...) -- CPU_ReadMem(64 bytes @ 0x08000400) -- Updating C cache (64 bytes @ 0x08000400) -- Read from C cache (16 bytes @ 0x08000400) - Data: 89 01 00 08 38 7E 00 20 38 84 00 20 38 80 00 20  returns 0x00 (0001ms, 0643ms total)
T1824 001:381 JLINK_ReadMem (0x40006400, 0x001C Bytes, ...) -- CPU_ReadMem(28 bytes @ 0x40006400) - Data: 02 00 01 00 0A 0C 00 00 00 00 00 1C 00 00 00 00 ...  returns 0x00 (0001ms, 0644ms total)
T1824 001:382 JLINK_ReadMem (0x4000641C, 0x0004 Bytes, ...) -- CPU_ReadMem(4 bytes @ 0x4000641C) - Data: 00 00 23 01  returns 0x00 (0000ms, 0644ms total)
T1824 001:382 JLINK_ReadMem (0x40006580, 0x004C Bytes, ...) -- CPU_ReadMem(76 bytes @ 0x40006580) - Data: 00 00 00 00 00 00 00 00 00 00 00 00 00 00 00 00 ...  returns 0x00 (0001ms, 0645ms total)
T1824 001:383 JLINK_ReadMem (0x400065CC, 0x0004 Bytes, ...) -- CPU_ReadMem(4 bytes @ 0x400065CC) - Data: 00 00 00 00  returns 0x00 (0002ms, 0647ms total)
T1824 001:385 JLINK_ReadMem (0x40006600, 0x0004 Bytes, ...) -- CPU_ReadMem(4 bytes @ 0x40006600) - Data: 01 0E 1C 2A  returns 0x00 (0000ms, 0647ms total)
T1824 001:385 JLINK_ReadMem (0x40006604, 0x0004 Bytes, ...) -- CPU_ReadMem(4 bytes @ 0x40006604) - Data: 00 00 00 00  returns 0x00 (0001ms, 0648ms total)
T1824 001:386 JLINK_ReadMem (0x4000660C, 0x0004 Bytes, ...) -- CPU_ReadMem(4 bytes @ 0x4000660C) - Data: 00 00 00 00  returns 0x00 (0001ms, 0649ms total)
T1824 001:387 JLINK_ReadMem (0x40006614, 0x0004 Bytes, ...) -- CPU_ReadMem(4 bytes @ 0x40006614) - Data: 00 00 00 00  returns 0x00 (0000ms, 0649ms total)
T1824 001:387 JLINK_ReadMem (0x4000661C, 0x0004 Bytes, ...) -- CPU_ReadMem(4 bytes @ 0x4000661C) - Data: 00 00 00 00  returns 0x00 (0001ms, 0650ms total)
T1824 001:388 JLINK_ReadMem (0x40006640, 0x00DC Bytes, ...) -- CPU_ReadMem(220 bytes @ 0x40006640) - Data: 00 00 00 00 00 00 00 00 00 00 00 00 00 00 00 00 ...  returns 0x00 (0003ms, 0653ms total)
T1824 001:391 JLINK_ReadMem (0x4000671C, 0x0004 Bytes, ...) -- CPU_ReadMem(4 bytes @ 0x4000671C) - Data: 00 00 00 00  returns 0x00 (0001ms, 0654ms total)
T1824 001:445 JLINK_ReadMem (0x40020800, 0x0014 Bytes, ...) -- CPU_ReadMem(20 bytes @ 0x40020800) - Data: 00 00 00 00 00 00 00 00 00 00 00 00 00 00 00 00 ...  returns 0x00 (0001ms, 0655ms total)
T1824 001:446 JLINK_ReadMem (0x40020814, 0x0004 Bytes, ...) -- CPU_ReadMem(4 bytes @ 0x40020814) - Data: 00 00 00 00  returns 0x00 (0001ms, 0656ms total)
T1824 001:447 JLINK_ReadMem (0x4002081C, 0x0008 Bytes, ...) -- CPU_ReadMem(8 bytes @ 0x4002081C) - Data: 00 00 00 00 00 00 00 00  returns 0x00 (0001ms, 0657ms total)
T1824 001:448 JLINK_ReadMem (0x40020824, 0x0004 Bytes, ...) -- CPU_ReadMem(4 bytes @ 0x40020824) - Data: 00 00 00 00  returns 0x00 (0000ms, 0657ms total)
T1824 001:493 JLINK_ReadMem (0x40004800, 0x0018 Bytes, ...) -- CPU_ReadMem(24 bytes @ 0x40004800) - Data: 00 00 00 00 00 00 00 00 00 00 00 00 00 00 00 00 ...  returns 0x00 (0001ms, 0658ms total)
T1824 001:494 JLINK_ReadMem (0x40004818, 0x0004 Bytes, ...) -- CPU_ReadMem(4 bytes @ 0x40004818) - Data: 00 00 00 00  returns 0x00 (0001ms, 0659ms total)
T1824 002:763 JLINK_ReadMem (0x20000AF2, 0x010E Bytes, ...) -- CPU_ReadMem(320 bytes @ 0x20000AC0) -- Updating C cache (320 bytes @ 0x20000AC0) -- Read from C cache (270 bytes @ 0x20000AF2) - Data: 00 00 00 00 00 00 70 EA AF BE 70 EA AF BE 70 EA ...  returns 0x00 (0004ms, 0663ms total)
T1824 002:767 JLINK_ReadMem (0x20000C00, 0x001B Bytes, ...) -- CPU_ReadMem(64 bytes @ 0x20000C00) -- Updating C cache (64 bytes @ 0x20000C00) -- Read from C cache (27 bytes @ 0x20000C00) - Data: 00 00 00 00 00 80 6D 44 00 00 00 00 00 00 F0 41 ...  returns 0x00 (0001ms, 0664ms total)
T1824 002:768 JLINK_ReadMem (0x0800380C, 0x01DD Bytes, ...) -- CPU_ReadMem(512 bytes @ 0x08003800) -- Updating C cache (512 bytes @ 0x08003800) -- Read from C cache (477 bytes @ 0x0800380C) - Data: 00 00 48 C2 00 00 FA 44 00 40 9C 45 EC 0A 00 20 ...  returns 0x00 (0006ms, 0670ms total)
T15FC 002:792 JLINK_SetBPEx(Addr = 0x0800A248, Type = 0xFFFFFFF2)  returns 0x00000001 (0000ms, 0670ms total)
T15FC 002:792 JLINK_Go() -- CPU_WriteMem(4 bytes @ 0xE0002000) -- CPU_ReadMem(4 bytes @ 0xE0001000) -- CPU_WriteMem(4 bytes @ 0xE0002008) -- CPU_WriteMem(4 bytes @ 0xE000200C) -- CPU_WriteMem(4 bytes @ 0xE0002010) -- CPU_WriteMem(4 bytes @ 0xE0002014) -- CPU_WriteMem(4 bytes @ 0xE0002018) -- CPU_WriteMem(4 bytes @ 0xE000201C) -- CPU_WriteMem(4 bytes @ 0xE0001004) (0004ms, 0674ms total)
T15FC 002:898 JLINK_IsHalted()  returns TRUE (0003ms, 0677ms total)
T15FC 002:901 JLINK_Halt()  returns 0x00 (0000ms, 0674ms total)
T15FC 002:901 JLINK_IsHalted()  returns TRUE (0000ms, 0674ms total)
T15FC 002:901 JLINK_IsHalted()  returns TRUE (0000ms, 0674ms total)
T15FC 002:901 JLINK_IsHalted()  returns TRUE (0000ms, 0674ms total)
T15FC 002:901 JLINK_ReadReg(R15 (PC))  returns 0x0800A248 (0000ms, 0674ms total)
T15FC 002:901 JLINK_ReadReg(XPSR)  returns 0x61000000 (0000ms, 0674ms total)
T15FC 002:901 JLINK_ClrBPEx(BPHandle = 0x00000001)  returns 0x00 (0000ms, 0674ms total)
T15FC 002:902 JLINK_ReadMemU32(0xE000ED30, 0x0001 Items, ...) -- CPU_ReadMem(4 bytes @ 0xE000ED30) - Data: 03 00 00 00  returns 0x01 (0000ms, 0674ms total)
T15FC 002:902 JLINK_ReadMemU32(0xE0001028, 0x0001 Items, ...) -- CPU_ReadMem(4 bytes @ 0xE0001028) - Data: 00 00 00 00  returns 0x01 (0001ms, 0675ms total)
T15FC 002:903 JLINK_ReadMemU32(0xE0001038, 0x0001 Items, ...) -- CPU_ReadMem(4 bytes @ 0xE0001038) - Data: 00 02 00 00  returns 0x01 (0001ms, 0676ms total)
T15FC 002:904 JLINK_ReadMemU32(0xE0001048, 0x0001 Items, ...) -- CPU_ReadMem(4 bytes @ 0xE0001048) - Data: 00 00 00 00  returns 0x01 (0000ms, 0676ms total)
T15FC 002:904 JLINK_ReadMemU32(0xE0001058, 0x0001 Items, ...) -- CPU_ReadMem(4 bytes @ 0xE0001058) - Data: 00 00 00 00  returns 0x01 (0001ms, 0677ms total)
T15FC 002:905 JLINK_ReadReg(R0)  returns 0x20007E38 (0000ms, 0677ms total)
T15FC 002:905 JLINK_ReadReg(R1)  returns 0x20008038 (0000ms, 0677ms total)
T15FC 002:905 JLINK_ReadReg(R2)  returns 0x20008038 (0000ms, 0677ms total)
T15FC 002:905 JLINK_ReadReg(R3)  returns 0x20008038 (0001ms, 0678ms total)
T15FC 002:906 JLINK_ReadReg(R4)  returns 0x00000000 (0000ms, 0678ms total)
T15FC 002:906 JLINK_ReadReg(R5)  returns 0x20007DD4 (0000ms, 0678ms total)
T15FC 002:906 JLINK_ReadReg(R6)  returns 0x00000000 (0000ms, 0678ms total)
T15FC 002:906 JLINK_ReadReg(R7)  returns 0x00000000 (0000ms, 0678ms total)
T15FC 002:906 JLINK_ReadReg(R8)  returns 0x00000000 (0000ms, 0678ms total)
T15FC 002:906 JLINK_ReadReg(R9)  returns 0x00000000 (0000ms, 0678ms total)
T15FC 002:906 JLINK_ReadReg(R10)  returns 0x0800F4DC (0000ms, 0678ms total)
T15FC 002:906 JLINK_ReadReg(R11)  returns 0x00000000 (0000ms, 0678ms total)
T15FC 002:906 JLINK_ReadReg(R12)  returns 0x20007E48 (0000ms, 0678ms total)
T15FC 002:906 JLINK_ReadReg(R13 (SP))  returns 0x20008438 (0000ms, 0678ms total)
T15FC 002:906 JLINK_ReadReg(R14)  returns 0x0800030B (0000ms, 0678ms total)
T15FC 002:906 JLINK_ReadReg(R15 (PC))  returns 0x0800A248 (0000ms, 0678ms total)
T15FC 002:906 JLINK_ReadReg(XPSR)  returns 0x61000000 (0000ms, 0678ms total)
T15FC 002:906 JLINK_ReadReg(MSP)  returns 0x20008438 (0000ms, 0678ms total)
T15FC 002:906 JLINK_ReadReg(PSP)  returns 0x00000000 (0000ms, 0678ms total)
T15FC 002:906 JLINK_ReadReg(CFBP)  returns 0x04000000 (0000ms, 0678ms total)
T15FC 002:906 JLINK_ReadReg(FPSCR)  returns 0x03000000 (0006ms, 0684ms total)
T15FC 002:912 JLINK_ReadReg(FPS0)  returns 0x00000000 (0000ms, 0684ms total)
T15FC 002:912 JLINK_ReadReg(FPS1)  returns 0x00000000 (0000ms, 0684ms total)
T15FC 002:912 JLINK_ReadReg(FPS2)  returns 0x00000000 (0000ms, 0684ms total)
T15FC 002:912 JLINK_ReadReg(FPS3)  returns 0x00000000 (0000ms, 0684ms total)
T15FC 002:912 JLINK_ReadReg(FPS4)  returns 0x00000000 (0000ms, 0684ms total)
T15FC 002:912 JLINK_ReadReg(FPS5)  returns 0x00000000 (0000ms, 0684ms total)
T15FC 002:912 JLINK_ReadReg(FPS6)  returns 0x00000000 (0000ms, 0684ms total)
T15FC 002:912 JLINK_ReadReg(FPS7)  returns 0x00000000 (0000ms, 0684ms total)
T15FC 002:912 JLINK_ReadReg(FPS8)  returns 0x00000000 (0000ms, 0684ms total)
T15FC 002:912 JLINK_ReadReg(FPS9)  returns 0x00000000 (0000ms, 0684ms total)
T15FC 002:912 JLINK_ReadReg(FPS10)  returns 0x00000000 (0000ms, 0684ms total)
T15FC 002:912 JLINK_ReadReg(FPS11)  returns 0x00000000 (0000ms, 0684ms total)
T15FC 002:912 JLINK_ReadReg(FPS12)  returns 0x00000000 (0000ms, 0684ms total)
T15FC 002:912 JLINK_ReadReg(FPS13)  returns 0x00000000 (0000ms, 0684ms total)
T15FC 002:912 JLINK_ReadReg(FPS14)  returns 0x00000000 (0000ms, 0684ms total)
T15FC 002:912 JLINK_ReadReg(FPS15)  returns 0x00000000 (0001ms, 0685ms total)
T15FC 002:913 JLINK_ReadReg(FPS16)  returns 0x00000000 (0000ms, 0685ms total)
T15FC 002:913 JLINK_ReadReg(FPS17)  returns 0x00000000 (0000ms, 0685ms total)
T15FC 002:913 JLINK_ReadReg(FPS18)  returns 0x00000000 (0000ms, 0685ms total)
T15FC 002:913 JLINK_ReadReg(FPS19)  returns 0x00000000 (0000ms, 0685ms total)
T15FC 002:913 JLINK_ReadReg(FPS20)  returns 0x00000000 (0000ms, 0685ms total)
T15FC 002:913 JLINK_ReadReg(FPS21)  returns 0x00000000 (0000ms, 0685ms total)
T15FC 002:913 JLINK_ReadReg(FPS22)  returns 0x00000000 (0000ms, 0685ms total)
T15FC 002:913 JLINK_ReadReg(FPS23)  returns 0x00000000 (0000ms, 0685ms total)
T15FC 002:913 JLINK_ReadReg(FPS24)  returns 0x00000000 (0000ms, 0685ms total)
T15FC 002:913 JLINK_ReadReg(FPS25)  returns 0x00000000 (0000ms, 0685ms total)
T15FC 002:913 JLINK_ReadReg(FPS26)  returns 0x00000000 (0000ms, 0685ms total)
T15FC 002:913 JLINK_ReadReg(FPS27)  returns 0x00000000 (0000ms, 0685ms total)
T15FC 002:913 JLINK_ReadReg(FPS28)  returns 0x00000000 (0000ms, 0685ms total)
T15FC 002:913 JLINK_ReadReg(FPS29)  returns 0x00000000 (0000ms, 0685ms total)
T15FC 002:913 JLINK_ReadReg(FPS30)  returns 0x00000000 (0000ms, 0685ms total)
T15FC 002:913 JLINK_ReadReg(FPS31)  returns 0x00000000 (0000ms, 0685ms total)
T1824 002:920 JLINK_ReadMem (0x40006400, 0x001C Bytes, ...) -- CPU_ReadMem(28 bytes @ 0x40006400) - Data: 02 00 01 00 0A 0C 00 00 00 00 00 1C 00 00 00 00 ...  returns 0x00 (0001ms, 0686ms total)
T1824 002:921 JLINK_ReadMem (0x4000641C, 0x0004 Bytes, ...) -- CPU_ReadMem(4 bytes @ 0x4000641C) - Data: 00 00 23 01  returns 0x00 (0002ms, 0688ms total)
T1824 002:923 JLINK_ReadMem (0x40006580, 0x004C Bytes, ...) -- CPU_ReadMem(76 bytes @ 0x40006580) - Data: 00 00 00 00 00 00 00 00 00 00 00 00 00 00 00 00 ...  returns 0x00 (0001ms, 0689ms total)
T1824 002:924 JLINK_ReadMem (0x400065CC, 0x0004 Bytes, ...) -- CPU_ReadMem(4 bytes @ 0x400065CC) - Data: 00 00 00 00  returns 0x00 (0000ms, 0689ms total)
T1824 002:924 JLINK_ReadMem (0x40006600, 0x0004 Bytes, ...) -- CPU_ReadMem(4 bytes @ 0x40006600) - Data: 01 0E 1C 2A  returns 0x00 (0002ms, 0691ms total)
T1824 002:926 JLINK_ReadMem (0x40006604, 0x0004 Bytes, ...) -- CPU_ReadMem(4 bytes @ 0x40006604) - Data: 00 00 00 00  returns 0x00 (0000ms, 0691ms total)
T1824 002:927 JLINK_ReadMem (0x4000660C, 0x0004 Bytes, ...) -- CPU_ReadMem(4 bytes @ 0x4000660C) - Data: 00 00 00 00  returns 0x00 (0000ms, 0691ms total)
T1824 002:927 JLINK_ReadMem (0x40006614, 0x0004 Bytes, ...) -- CPU_ReadMem(4 bytes @ 0x40006614) - Data: 00 00 00 00  returns 0x00 (0001ms, 0692ms total)
T1824 002:928 JLINK_ReadMem (0x4000661C, 0x0004 Bytes, ...) -- CPU_ReadMem(4 bytes @ 0x4000661C) - Data: 00 00 00 00  returns 0x00 (0001ms, 0693ms total)
T1824 002:929 JLINK_ReadMem (0x40006640, 0x00DC Bytes, ...) -- CPU_ReadMem(220 bytes @ 0x40006640) - Data: 00 00 00 00 00 00 00 00 00 00 00 00 00 00 00 00 ...  returns 0x00 (0003ms, 0696ms total)
T1824 002:932 JLINK_ReadMem (0x4000671C, 0x0004 Bytes, ...) -- CPU_ReadMem(4 bytes @ 0x4000671C) - Data: 00 00 00 00  returns 0x00 (0001ms, 0697ms total)
T1824 002:940 JLINK_ReadMem (0x40004800, 0x0018 Bytes, ...) -- CPU_ReadMem(24 bytes @ 0x40004800) - Data: 00 00 00 00 00 00 00 00 00 00 00 00 00 00 00 00 ...  returns 0x00 (0002ms, 0699ms total)
T1824 002:942 JLINK_ReadMem (0x40004818, 0x0004 Bytes, ...) -- CPU_ReadMem(4 bytes @ 0x40004818) - Data: 00 00 00 00  returns 0x00 (0000ms, 0699ms total)
T1824 002:942 JLINK_ReadMem (0x40020800, 0x0014 Bytes, ...) -- CPU_ReadMem(20 bytes @ 0x40020800) - Data: 00 00 00 00 00 00 00 00 00 00 00 00 00 00 00 00 ...  returns 0x00 (0001ms, 0700ms total)
T1824 002:943 JLINK_ReadMem (0x40020814, 0x0004 Bytes, ...) -- CPU_ReadMem(4 bytes @ 0x40020814) - Data: 00 00 00 00  returns 0x00 (0002ms, 0702ms total)
T1824 002:945 JLINK_ReadMem (0x4002081C, 0x0008 Bytes, ...) -- CPU_ReadMem(8 bytes @ 0x4002081C) - Data: 00 00 00 00 00 00 00 00  returns 0x00 (0000ms, 0702ms total)
T1824 002:945 JLINK_ReadMem (0x40020824, 0x0004 Bytes, ...) -- CPU_ReadMem(4 bytes @ 0x40020824) - Data: 00 00 00 00  returns 0x00 (0001ms, 0703ms total)
T1824 002:947 JLINK_ReadMem (0x0800A248, 0x003C Bytes, ...) -- CPU_ReadMem(128 bytes @ 0x0800A240) -- Updating C cache (128 bytes @ 0x0800A240) -- Read from C cache (60 bytes @ 0x0800A248) - Data: 1F B5 00 20 03 23 CD E9 00 30 02 90 03 46 4F F4 ...  returns 0x00 (0003ms, 0706ms total)
T15FC 003:347 JLINK_Go() -- CPU_ReadMem(4 bytes @ 0xE0001000) -- CPU_WriteMem(4 bytes @ 0xE0002008) (0001ms, 0707ms total)
T15FC 003:449 JLINK_IsHalted()  returns FALSE (0000ms, 0707ms total)
T15FC 003:550 JLINK_IsHalted()  returns FALSE (0000ms, 0707ms total)
T15FC 003:651 JLINK_IsHalted()  returns FALSE (0000ms, 0707ms total)
T15FC 003:752 JLINK_IsHalted()  returns FALSE (0000ms, 0707ms total)
T15FC 003:853 JLINK_IsHalted()  returns FALSE (0000ms, 0707ms total)
T15FC 003:954 JLINK_ReadMemU32(0xE0001004, 0x0001 Items, ...) -- CPU is running -- CPU_ReadMem(4 bytes @ 0xE0001004) - Data: 89 18 13 06  returns 0x01 (0000ms, 0707ms total)
T1824 003:960 JLINK_ReadMem (0x40006400, 0x001C Bytes, ...) -- CPU is running -- CPU_ReadMem(28 bytes @ 0x40006400) - Data: 40 00 01 00 00 0C 00 00 00 00 00 1C 00 00 00 00 ...  returns 0x00 (0001ms, 0708ms total)
T1824 003:961 JLINK_ReadMem (0x4000641C, 0x0004 Bytes, ...) -- CPU is running -- CPU_ReadMem(4 bytes @ 0x4000641C) - Data: 02 00 38 00  returns 0x00 (0001ms, 0709ms total)
T1824 003:962 JLINK_ReadMem (0x40006580, 0x004C Bytes, ...) -- CPU is running -- CPU_ReadMem(76 bytes @ 0x40006580) - Data: 00 00 60 60 E8 4A 7C 3B 01 00 00 00 00 00 00 00 ...  returns 0x00 (0001ms, 0710ms total)
T1824 003:963 JLINK_ReadMem (0x400065CC, 0x0004 Bytes, ...) -- CPU is running -- CPU_ReadMem(4 bytes @ 0x400065CC) - Data: CC 30 D1 57  returns 0x00 (0001ms, 0711ms total)
T1824 003:964 JLINK_ReadMem (0x40006600, 0x0004 Bytes, ...) -- CPU is running -- CPU_ReadMem(4 bytes @ 0x40006600) - Data: 00 0E 1C 2A  returns 0x00 (0001ms, 0712ms total)
T1824 003:965 JLINK_ReadMem (0x40006604, 0x0004 Bytes, ...) -- CPU is running -- CPU_ReadMem(4 bytes @ 0x40006604) - Data: 00 00 00 00  returns 0x00 (0001ms, 0713ms total)
T1824 003:966 JLINK_ReadMem (0x4000660C, 0x0004 Bytes, ...) -- CPU is running -- CPU_ReadMem(4 bytes @ 0x4000660C) - Data: 01 40 00 00  returns 0x00 (0001ms, 0714ms total)
T1824 003:967 JLINK_ReadMem (0x40006614, 0x0004 Bytes, ...) -- CPU is running -- CPU_ReadMem(4 bytes @ 0x40006614) - Data: 00 00 00 00  returns 0x00 (0001ms, 0715ms total)
T1824 003:968 JLINK_ReadMem (0x4000661C, 0x0004 Bytes, ...) -- CPU is running -- CPU_ReadMem(4 bytes @ 0x4000661C) - Data: 01 40 00 00  returns 0x00 (0001ms, 0716ms total)
T1824 003:969 JLINK_ReadMem (0x40006640, 0x00DC Bytes, ...) -- CPU is running -- CPU_ReadMem(220 bytes @ 0x40006640) - Data: 00 00 00 00 00 00 00 00 51 27 0E AB 94 91 FA 1F ...  returns 0x00 (0002ms, 0718ms total)
T1824 003:971 JLINK_ReadMem (0x4000671C, 0x0004 Bytes, ...) -- CPU is running -- CPU_ReadMem(4 bytes @ 0x4000671C) - Data: 35 ED 07 49  returns 0x00 (0001ms, 0719ms total)
T1824 004:013 JLINK_ReadMem (0x40004800, 0x0018 Bytes, ...) -- CPU is running -- CPU_ReadMem(24 bytes @ 0x40004800) - Data: C0 00 00 00 00 00 00 00 00 00 00 00 10 00 00 00 ...  returns 0x00 (0001ms, 0720ms total)
T1824 004:014 JLINK_ReadMem (0x40004818, 0x0004 Bytes, ...) -- CPU is running -- CPU_ReadMem(4 bytes @ 0x40004818) - Data: 00 00 00 00  returns 0x00 (0001ms, 0721ms total)
T1824 004:016 JLINK_ReadMem (0x40020800, 0x0014 Bytes, ...) -- CPU is running -- CPU_ReadMem(20 bytes @ 0x40020800) - Data: 05 A0 A0 00 00 00 00 00 0A A0 F0 00 05 A0 54 00 ...  returns 0x00 (0001ms, 0722ms total)
T1824 004:017 JLINK_ReadMem (0x40020814, 0x0004 Bytes, ...) -- CPU is running -- CPU_ReadMem(4 bytes @ 0x40020814) - Data: 00 00 00 00  returns 0x00 (0001ms, 0723ms total)
T1824 004:018 JLINK_ReadMem (0x4002081C, 0x0008 Bytes, ...) -- CPU is running -- CPU_ReadMem(8 bytes @ 0x4002081C) - Data: 00 00 00 00 00 00 00 33  returns 0x00 (0000ms, 0723ms total)
T1824 004:018 JLINK_ReadMem (0x40020824, 0x0004 Bytes, ...) -- CPU is running -- CPU_ReadMem(4 bytes @ 0x40020824) - Data: 00 88 00 00  returns 0x00 (0002ms, 0725ms total)
T15FC 004:023 JLINK_IsHalted()  returns FALSE (0000ms, 0725ms total)
T15FC 004:125 JLINK_IsHalted()  returns FALSE (0000ms, 0725ms total)
T15FC 004:226 JLINK_IsHalted()  returns FALSE (0000ms, 0725ms total)
T15FC 004:327 JLINK_IsHalted()  returns FALSE (0000ms, 0725ms total)
T15FC 004:427 JLINK_IsHalted()  returns FALSE (0000ms, 0725ms total)
T15FC 004:529 JLINK_ReadMemU32(0xE0001004, 0x0001 Items, ...) -- CPU is running -- CPU_ReadMem(4 bytes @ 0xE0001004) - Data: 67 0D D5 0B  returns 0x01 (0000ms, 0725ms total)
T1824 004:536 JLINK_ReadMem (0x40006400, 0x001C Bytes, ...) -- CPU is running -- CPU_ReadMem(28 bytes @ 0x40006400) - Data: 40 00 01 00 00 0C 00 00 00 00 00 1C 00 00 00 00 ...  returns 0x00 (0002ms, 0727ms total)
T1824 004:538 JLINK_ReadMem (0x4000641C, 0x0004 Bytes, ...) -- CPU is running -- CPU_ReadMem(4 bytes @ 0x4000641C) - Data: 02 00 38 00  returns 0x00 (0000ms, 0727ms total)
T1824 004:538 JLINK_ReadMem (0x40006580, 0x004C Bytes, ...) -- CPU is running -- CPU_ReadMem(76 bytes @ 0x40006580) - Data: 00 00 60 60 E8 4A 7C 3B 01 00 00 00 00 00 00 00 ...  returns 0x00 (0003ms, 0730ms total)
T1824 004:541 JLINK_ReadMem (0x400065CC, 0x0004 Bytes, ...) -- CPU is running -- CPU_ReadMem(4 bytes @ 0x400065CC) - Data: CC 30 D1 57  returns 0x00 (0000ms, 0730ms total)
T1824 004:541 JLINK_ReadMem (0x40006600, 0x0004 Bytes, ...) -- CPU is running -- CPU_ReadMem(4 bytes @ 0x40006600) - Data: 00 0E 1C 2A  returns 0x00 (0001ms, 0731ms total)
T1824 004:542 JLINK_ReadMem (0x40006604, 0x0004 Bytes, ...) -- CPU is running -- CPU_ReadMem(4 bytes @ 0x40006604) - Data: 00 00 00 00  returns 0x00 (0001ms, 0732ms total)
T1824 004:543 JLINK_ReadMem (0x4000660C, 0x0004 Bytes, ...) -- CPU is running -- CPU_ReadMem(4 bytes @ 0x4000660C) - Data: 01 40 00 00  returns 0x00 (0001ms, 0733ms total)
T1824 004:544 JLINK_ReadMem (0x40006614, 0x0004 Bytes, ...) -- CPU is running -- CPU_ReadMem(4 bytes @ 0x40006614) - Data: 00 00 00 00  returns 0x00 (0000ms, 0733ms total)
T1824 004:544 JLINK_ReadMem (0x4000661C, 0x0004 Bytes, ...) -- CPU is running -- CPU_ReadMem(4 bytes @ 0x4000661C) - Data: 01 40 00 00  returns 0x00 (0001ms, 0734ms total)
T1824 004:545 JLINK_ReadMem (0x40006640, 0x00DC Bytes, ...) -- CPU is running -- CPU_ReadMem(220 bytes @ 0x40006640) - Data: 00 00 00 00 00 00 00 00 51 27 0E AB 94 91 FA 1F ...  returns 0x00 (0004ms, 0738ms total)
T1824 004:549 JLINK_ReadMem (0x4000671C, 0x0004 Bytes, ...) -- CPU is running -- CPU_ReadMem(4 bytes @ 0x4000671C) - Data: 35 ED 07 49  returns 0x00 (0001ms, 0739ms total)
T1824 004:558 JLINK_ReadMem (0x40004800, 0x0018 Bytes, ...) -- CPU is running -- CPU_ReadMem(24 bytes @ 0x40004800) - Data: C0 00 00 00 00 00 00 00 00 00 00 00 10 00 00 00 ...  returns 0x00 (0000ms, 0739ms total)
T1824 004:558 JLINK_ReadMem (0x40004818, 0x0004 Bytes, ...) -- CPU is running -- CPU_ReadMem(4 bytes @ 0x40004818) - Data: 00 00 00 00  returns 0x00 (0001ms, 0740ms total)
T1824 004:559 JLINK_ReadMem (0x40020800, 0x0014 Bytes, ...) -- CPU is running -- CPU_ReadMem(20 bytes @ 0x40020800) - Data: 05 A0 A0 00 00 00 00 00 0A A0 F0 00 05 A0 54 00 ...  returns 0x00 (0001ms, 0741ms total)
T1824 004:560 JLINK_ReadMem (0x40020814, 0x0004 Bytes, ...) -- CPU is running -- CPU_ReadMem(4 bytes @ 0x40020814) - Data: 00 00 00 00  returns 0x00 (0001ms, 0742ms total)
T1824 004:561 JLINK_ReadMem (0x4002081C, 0x0008 Bytes, ...) -- CPU is running -- CPU_ReadMem(8 bytes @ 0x4002081C) - Data: 00 00 00 00 00 00 00 33  returns 0x00 (0001ms, 0743ms total)
T1824 004:562 JLINK_ReadMem (0x40020824, 0x0004 Bytes, ...) -- CPU is running -- CPU_ReadMem(4 bytes @ 0x40020824) - Data: 00 88 00 00  returns 0x00 (0000ms, 0743ms total)
T15FC 004:565 JLINK_IsHalted()  returns FALSE (0000ms, 0743ms total)
T15FC 004:667 JLINK_IsHalted()  returns FALSE (0000ms, 0743ms total)
T15FC 004:768 JLINK_IsHalted()  returns FALSE (0000ms, 0743ms total)
T15FC 004:869 JLINK_IsHalted()  returns FALSE (0001ms, 0744ms total)
T15FC 004:970 JLINK_IsHalted()  returns FALSE (0000ms, 0743ms total)
T15FC 005:071 JLINK_ReadMemU32(0xE0001004, 0x0001 Items, ...) -- CPU is running -- CPU_ReadMem(4 bytes @ 0xE0001004) - Data: A1 8A 42 11  returns 0x01 (0000ms, 0743ms total)
T1824 005:077 JLINK_ReadMem (0x40006400, 0x001C Bytes, ...) -- CPU is running -- CPU_ReadMem(28 bytes @ 0x40006400) - Data: 40 00 01 00 00 0C 00 00 00 00 00 1C 00 00 00 00 ...  returns 0x00 (0001ms, 0744ms total)
T1824 005:078 JLINK_ReadMem (0x4000641C, 0x0004 Bytes, ...) -- CPU is running -- CPU_ReadMem(4 bytes @ 0x4000641C) - Data: 02 00 38 00  returns 0x00 (0001ms, 0745ms total)
T1824 005:079 JLINK_ReadMem (0x40006580, 0x004C Bytes, ...) -- CPU is running -- CPU_ReadMem(76 bytes @ 0x40006580) - Data: 00 00 60 60 E8 4A 7C 3B 01 00 00 00 00 00 00 00 ...  returns 0x00 (0002ms, 0747ms total)
T1824 005:081 JLINK_ReadMem (0x400065CC, 0x0004 Bytes, ...) -- CPU is running -- CPU_ReadMem(4 bytes @ 0x400065CC) - Data: CC 30 D1 57  returns 0x00 (0001ms, 0748ms total)
T1824 005:082 JLINK_ReadMem (0x40006600, 0x0004 Bytes, ...) -- CPU is running -- CPU_ReadMem(4 bytes @ 0x40006600) - Data: 00 0E 1C 2A  returns 0x00 (0000ms, 0748ms total)
T1824 005:082 JLINK_ReadMem (0x40006604, 0x0004 Bytes, ...) -- CPU is running -- CPU_ReadMem(4 bytes @ 0x40006604) - Data: 00 00 00 00  returns 0x00 (0001ms, 0749ms total)
T1824 005:083 JLINK_ReadMem (0x4000660C, 0x0004 Bytes, ...) -- CPU is running -- CPU_ReadMem(4 bytes @ 0x4000660C) - Data: 01 40 00 00  returns 0x00 (0001ms, 0750ms total)
T1824 005:084 JLINK_ReadMem (0x40006614, 0x0004 Bytes, ...) -- CPU is running -- CPU_ReadMem(4 bytes @ 0x40006614) - Data: 00 00 00 00  returns 0x00 (0000ms, 0750ms total)
T1824 005:084 JLINK_ReadMem (0x4000661C, 0x0004 Bytes, ...) -- CPU is running -- CPU_ReadMem(4 bytes @ 0x4000661C) - Data: 01 40 00 00  returns 0x00 (0001ms, 0751ms total)
T1824 005:085 JLINK_ReadMem (0x40006640, 0x00DC Bytes, ...) -- CPU is running -- CPU_ReadMem(220 bytes @ 0x40006640) - Data: 00 00 00 00 00 00 00 00 51 27 0E AB 94 91 FA 1F ...  returns 0x00 (0004ms, 0755ms total)
T1824 005:089 JLINK_ReadMem (0x4000671C, 0x0004 Bytes, ...) -- CPU is running -- CPU_ReadMem(4 bytes @ 0x4000671C) - Data: 35 ED 07 49  returns 0x00 (0001ms, 0756ms total)
T1824 005:097 JLINK_ReadMem (0x40004800, 0x0018 Bytes, ...) -- CPU is running -- CPU_ReadMem(24 bytes @ 0x40004800) - Data: C0 00 00 00 00 00 00 00 00 00 00 00 10 00 00 00 ...  returns 0x00 (0001ms, 0757ms total)
T1824 005:098 JLINK_ReadMem (0x40004818, 0x0004 Bytes, ...) -- CPU is running -- CPU_ReadMem(4 bytes @ 0x40004818) - Data: 00 00 00 00  returns 0x00 (0001ms, 0758ms total)
T1824 005:099 JLINK_ReadMem (0x40020800, 0x0014 Bytes, ...) -- CPU is running -- CPU_ReadMem(20 bytes @ 0x40020800) - Data: 05 A0 A0 00 00 00 00 00 0A A0 F0 00 05 A0 54 00 ...  returns 0x00 (0001ms, 0759ms total)
T1824 005:100 JLINK_ReadMem (0x40020814, 0x0004 Bytes, ...) -- CPU is running -- CPU_ReadMem(4 bytes @ 0x40020814) - Data: 00 00 00 00  returns 0x00 (0001ms, 0760ms total)
T1824 005:101 JLINK_ReadMem (0x4002081C, 0x0008 Bytes, ...) -- CPU is running -- CPU_ReadMem(8 bytes @ 0x4002081C) - Data: 00 00 00 00 00 00 00 33  returns 0x00 (0001ms, 0761ms total)
T1824 005:102 JLINK_ReadMem (0x40020824, 0x0004 Bytes, ...) -- CPU is running -- CPU_ReadMem(4 bytes @ 0x40020824) - Data: 00 88 00 00  returns 0x00 (0000ms, 0761ms total)
T15FC 005:104 JLINK_IsHalted()  returns FALSE (0000ms, 0761ms total)
T15FC 005:205 JLINK_IsHalted()  returns FALSE (0000ms, 0761ms total)
T15FC 005:306 JLINK_IsHalted()  returns FALSE (0000ms, 0761ms total)
T15FC 005:407 JLINK_IsHalted()  returns FALSE (0001ms, 0762ms total)
T15FC 005:508 JLINK_IsHalted()  returns FALSE (0000ms, 0761ms total)
T15FC 005:609 JLINK_ReadMemU32(0xE0001004, 0x0001 Items, ...) -- CPU is running -- CPU_ReadMem(4 bytes @ 0xE0001004) - Data: 5B 85 A5 16  returns 0x01 (0001ms, 0762ms total)
T1824 005:614 JLINK_ReadMem (0x40006400, 0x001C Bytes, ...) -- CPU is running -- CPU_ReadMem(28 bytes @ 0x40006400) - Data: 40 00 01 00 00 0A 00 00 00 00 00 1C 00 00 00 00 ...  returns 0x00 (0001ms, 0763ms total)
T1824 005:615 JLINK_ReadMem (0x4000641C, 0x0004 Bytes, ...) -- CPU is running -- CPU_ReadMem(4 bytes @ 0x4000641C) - Data: 02 00 38 00  returns 0x00 (0001ms, 0764ms total)
T1824 005:616 JLINK_ReadMem (0x40006580, 0x004C Bytes, ...) -- CPU is running -- CPU_ReadMem(76 bytes @ 0x40006580) - Data: 00 00 60 60 E8 4A 7C 3B 01 00 00 00 00 00 00 00 ...  returns 0x00 (0002ms, 0766ms total)
T1824 005:618 JLINK_ReadMem (0x400065CC, 0x0004 Bytes, ...) -- CPU is running -- CPU_ReadMem(4 bytes @ 0x400065CC) - Data: CC 30 D1 57  returns 0x00 (0000ms, 0766ms total)
T1824 005:618 JLINK_ReadMem (0x40006600, 0x0004 Bytes, ...) -- CPU is running -- CPU_ReadMem(4 bytes @ 0x40006600) - Data: 00 0E 1C 2A  returns 0x00 (0001ms, 0767ms total)
T1824 005:619 JLINK_ReadMem (0x40006604, 0x0004 Bytes, ...) -- CPU is running -- CPU_ReadMem(4 bytes @ 0x40006604) - Data: 00 00 00 00  returns 0x00 (0001ms, 0768ms total)
T1824 005:620 JLINK_ReadMem (0x4000660C, 0x0004 Bytes, ...) -- CPU is running -- CPU_ReadMem(4 bytes @ 0x4000660C) - Data: 01 40 00 00  returns 0x00 (0001ms, 0769ms total)
T1824 005:621 JLINK_ReadMem (0x40006614, 0x0004 Bytes, ...) -- CPU is running -- CPU_ReadMem(4 bytes @ 0x40006614) - Data: 00 00 00 00  returns 0x00 (0000ms, 0769ms total)
T1824 005:621 JLINK_ReadMem (0x4000661C, 0x0004 Bytes, ...) -- CPU is running -- CPU_ReadMem(4 bytes @ 0x4000661C) - Data: 01 40 00 00  returns 0x00 (0001ms, 0770ms total)
T1824 005:622 JLINK_ReadMem (0x40006640, 0x00DC Bytes, ...) -- CPU is running -- CPU_ReadMem(220 bytes @ 0x40006640) - Data: 00 00 00 00 00 00 00 00 51 27 0E AB 94 91 FA 1F ...  returns 0x00 (0003ms, 0773ms total)
T1824 005:625 JLINK_ReadMem (0x4000671C, 0x0004 Bytes, ...) -- CPU is running -- CPU_ReadMem(4 bytes @ 0x4000671C) - Data: 35 ED 07 49  returns 0x00 (0001ms, 0774ms total)
T1824 005:633 JLINK_ReadMem (0x40004800, 0x0018 Bytes, ...) -- CPU is running -- CPU_ReadMem(24 bytes @ 0x40004800) - Data: C0 00 00 00 00 00 00 00 00 00 00 00 10 00 00 00 ...  returns 0x00 (0001ms, 0775ms total)
T1824 005:634 JLINK_ReadMem (0x40004818, 0x0004 Bytes, ...) -- CPU is running -- CPU_ReadMem(4 bytes @ 0x40004818) - Data: 00 00 00 00  returns 0x00 (0000ms, 0775ms total)
T1824 005:635 JLINK_ReadMem (0x40020800, 0x0014 Bytes, ...) -- CPU is running -- CPU_ReadMem(20 bytes @ 0x40020800) - Data: 05 A0 A0 00 00 00 00 00 0A A0 F0 00 05 A0 54 00 ...  returns 0x00 (0001ms, 0776ms total)
T1824 005:636 JLINK_ReadMem (0x40020814, 0x0004 Bytes, ...) -- CPU is running -- CPU_ReadMem(4 bytes @ 0x40020814) - Data: 00 00 00 00  returns 0x00 (0001ms, 0777ms total)
T1824 005:637 JLINK_ReadMem (0x4002081C, 0x0008 Bytes, ...) -- CPU is running -- CPU_ReadMem(8 bytes @ 0x4002081C) - Data: 00 00 00 00 00 00 00 33  returns 0x00 (0000ms, 0777ms total)
T1824 005:637 JLINK_ReadMem (0x40020824, 0x0004 Bytes, ...) -- CPU is running -- CPU_ReadMem(4 bytes @ 0x40020824) - Data: 00 88 00 00  returns 0x00 (0001ms, 0778ms total)
T15FC 005:639 JLINK_IsHalted()  returns FALSE (0001ms, 0779ms total)
T15FC 005:740 JLINK_IsHalted()  returns FALSE (0001ms, 0779ms total)
T15FC 005:841 JLINK_IsHalted()  returns FALSE (0000ms, 0778ms total)
T15FC 005:942 JLINK_IsHalted()  returns FALSE (0001ms, 0779ms total)
T15FC 006:043 JLINK_IsHalted()  returns FALSE (0001ms, 0779ms total)
T15FC 006:144 JLINK_ReadMemU32(0xE0001004, 0x0001 Items, ...) -- CPU is running -- CPU_ReadMem(4 bytes @ 0xE0001004) - Data: 12 94 00 1C  returns 0x01 (0000ms, 0778ms total)
T1824 006:149 JLINK_ReadMem (0x40006400, 0x001C Bytes, ...) -- CPU is running -- CPU_ReadMem(28 bytes @ 0x40006400) - Data: 40 00 01 00 00 0C 00 00 03 03 00 1C 00 00 00 00 ...  returns 0x00 (0002ms, 0780ms total)
T1824 006:151 JLINK_ReadMem (0x4000641C, 0x0004 Bytes, ...) -- CPU is running -- CPU_ReadMem(4 bytes @ 0x4000641C) - Data: 02 00 38 00  returns 0x00 (0000ms, 0780ms total)
T1824 006:151 JLINK_ReadMem (0x40006580, 0x004C Bytes, ...) -- CPU is running -- CPU_ReadMem(76 bytes @ 0x40006580) - Data: 00 00 E0 3F E8 4A 7C 3B 00 00 00 00 00 00 00 00 ...  returns 0x00 (0002ms, 0782ms total)
T1824 006:153 JLINK_ReadMem (0x400065CC, 0x0004 Bytes, ...) -- CPU is running -- CPU_ReadMem(4 bytes @ 0x400065CC) - Data: CC 30 D1 57  returns 0x00 (0000ms, 0782ms total)
T1824 006:153 JLINK_ReadMem (0x40006600, 0x0004 Bytes, ...) -- CPU is running -- CPU_ReadMem(4 bytes @ 0x40006600) - Data: 00 0E 1C 2A  returns 0x00 (0002ms, 0784ms total)
T1824 006:155 JLINK_ReadMem (0x40006604, 0x0004 Bytes, ...) -- CPU is running -- CPU_ReadMem(4 bytes @ 0x40006604) - Data: 00 00 00 00  returns 0x00 (0001ms, 0785ms total)
T1824 006:156 JLINK_ReadMem (0x4000660C, 0x0004 Bytes, ...) -- CPU is running -- CPU_ReadMem(4 bytes @ 0x4000660C) - Data: 01 40 00 00  returns 0x00 (0001ms, 0786ms total)
T1824 006:157 JLINK_ReadMem (0x40006614, 0x0004 Bytes, ...) -- CPU is running -- CPU_ReadMem(4 bytes @ 0x40006614) - Data: 00 00 00 00  returns 0x00 (0001ms, 0787ms total)
T1824 006:158 JLINK_ReadMem (0x4000661C, 0x0004 Bytes, ...) -- CPU is running -- CPU_ReadMem(4 bytes @ 0x4000661C) - Data: 01 40 00 00  returns 0x00 (0000ms, 0787ms total)
T1824 006:158 JLINK_ReadMem (0x40006640, 0x00DC Bytes, ...) -- CPU is running -- CPU_ReadMem(220 bytes @ 0x40006640) - Data: 00 00 00 00 00 00 00 00 51 27 0E AB 94 91 FA 1F ...  returns 0x00 (0003ms, 0790ms total)
T1824 006:161 JLINK_ReadMem (0x4000671C, 0x0004 Bytes, ...) -- CPU is running -- CPU_ReadMem(4 bytes @ 0x4000671C) - Data: 35 ED 07 49  returns 0x00 (0001ms, 0791ms total)
T1824 006:170 JLINK_ReadMem (0x40004800, 0x0018 Bytes, ...) -- CPU is running -- CPU_ReadMem(24 bytes @ 0x40004800) - Data: C0 00 00 00 00 00 00 00 00 00 00 00 10 00 00 00 ...  returns 0x00 (0002ms, 0793ms total)
T1824 006:172 JLINK_ReadMem (0x40004818, 0x0004 Bytes, ...) -- CPU is running -- CPU_ReadMem(4 bytes @ 0x40004818) - Data: 00 00 00 00  returns 0x00 (0001ms, 0794ms total)
T1824 006:173 JLINK_ReadMem (0x40020800, 0x0014 Bytes, ...) -- CPU is running -- CPU_ReadMem(20 bytes @ 0x40020800) - Data: 05 A0 A0 00 00 00 00 00 0A A0 F0 00 05 A0 54 00 ...  returns 0x00 (0001ms, 0795ms total)
T1824 006:174 JLINK_ReadMem (0x40020814, 0x0004 Bytes, ...) -- CPU is running -- CPU_ReadMem(4 bytes @ 0x40020814) - Data: 00 00 00 00  returns 0x00 (0001ms, 0796ms total)
T1824 006:175 JLINK_ReadMem (0x4002081C, 0x0008 Bytes, ...) -- CPU is running -- CPU_ReadMem(8 bytes @ 0x4002081C) - Data: 00 00 00 00 00 00 00 33  returns 0x00 (0001ms, 0797ms total)
T1824 006:176 JLINK_ReadMem (0x40020824, 0x0004 Bytes, ...) -- CPU is running -- CPU_ReadMem(4 bytes @ 0x40020824) - Data: 00 88 00 00  returns 0x00 (0000ms, 0797ms total)
T15FC 006:178 JLINK_IsHalted()  returns FALSE (0000ms, 0797ms total)
T15FC 006:279 JLINK_IsHalted()  returns FALSE (0000ms, 0797ms total)
T15FC 006:380 JLINK_IsHalted()  returns FALSE (0000ms, 0797ms total)
T15FC 006:481 JLINK_IsHalted()  returns FALSE (0000ms, 0797ms total)
T15FC 006:582 JLINK_IsHalted()  returns FALSE (0000ms, 0797ms total)
T15FC 006:684 JLINK_ReadMemU32(0xE0001004, 0x0001 Items, ...) -- CPU is running -- CPU_ReadMem(4 bytes @ 0xE0001004) - Data: 7A E9 68 21  returns 0x01 (0000ms, 0797ms total)
T1824 006:692 JLINK_ReadMem (0x40006400, 0x001C Bytes, ...) -- CPU is running -- CPU_ReadMem(28 bytes @ 0x40006400) - Data: 40 00 01 00 00 0C 00 00 03 03 00 1C 00 00 00 00 ...  returns 0x00 (0001ms, 0798ms total)
T1824 006:693 JLINK_ReadMem (0x4000641C, 0x0004 Bytes, ...) -- CPU is running -- CPU_ReadMem(4 bytes @ 0x4000641C) - Data: 02 00 38 00  returns 0x00 (0001ms, 0799ms total)
T1824 006:694 JLINK_ReadMem (0x40006580, 0x004C Bytes, ...) -- CPU is running -- CPU_ReadMem(76 bytes @ 0x40006580) - Data: 00 00 E0 3F E8 4A 7C 3B 00 00 00 00 00 00 00 00 ...  returns 0x00 (0001ms, 0800ms total)
T1824 006:695 JLINK_ReadMem (0x400065CC, 0x0004 Bytes, ...) -- CPU is running -- CPU_ReadMem(4 bytes @ 0x400065CC) - Data: CC 30 D1 57  returns 0x00 (0001ms, 0801ms total)
T1824 006:696 JLINK_ReadMem (0x40006600, 0x0004 Bytes, ...) -- CPU is running -- CPU_ReadMem(4 bytes @ 0x40006600) - Data: 00 0E 1C 2A  returns 0x00 (0001ms, 0802ms total)
T1824 006:697 JLINK_ReadMem (0x40006604, 0x0004 Bytes, ...) -- CPU is running -- CPU_ReadMem(4 bytes @ 0x40006604) - Data: 00 00 00 00  returns 0x00 (0001ms, 0803ms total)
T1824 006:698 JLINK_ReadMem (0x4000660C, 0x0004 Bytes, ...) -- CPU is running -- CPU_ReadMem(4 bytes @ 0x4000660C) - Data: 01 40 00 00  returns 0x00 (0000ms, 0803ms total)
T1824 006:698 JLINK_ReadMem (0x40006614, 0x0004 Bytes, ...) -- CPU is running -- CPU_ReadMem(4 bytes @ 0x40006614) - Data: 00 00 00 00  returns 0x00 (0002ms, 0805ms total)
T1824 006:700 JLINK_ReadMem (0x4000661C, 0x0004 Bytes, ...) -- CPU is running -- CPU_ReadMem(4 bytes @ 0x4000661C) - Data: 01 40 00 00  returns 0x00 (0001ms, 0806ms total)
T1824 006:701 JLINK_ReadMem (0x40006640, 0x00DC Bytes, ...) -- CPU is running -- CPU_ReadMem(220 bytes @ 0x40006640) - Data: 00 00 00 00 00 00 00 00 51 27 0E AB 94 91 FA 1F ...  returns 0x00 (0003ms, 0809ms total)
T1824 006:704 JLINK_ReadMem (0x4000671C, 0x0004 Bytes, ...) -- CPU is running -- CPU_ReadMem(4 bytes @ 0x4000671C) - Data: 35 ED 07 49  returns 0x00 (0000ms, 0809ms total)
T1824 006:712 JLINK_ReadMem (0x40004800, 0x0018 Bytes, ...) -- CPU is running -- CPU_ReadMem(24 bytes @ 0x40004800) - Data: C0 00 00 00 00 00 00 00 00 00 00 00 10 00 00 00 ...  returns 0x00 (0001ms, 0810ms total)
T1824 006:713 JLINK_ReadMem (0x40004818, 0x0004 Bytes, ...) -- CPU is running -- CPU_ReadMem(4 bytes @ 0x40004818) - Data: 00 00 00 00  returns 0x00 (0001ms, 0811ms total)
T1824 006:714 JLINK_ReadMem (0x40020800, 0x0014 Bytes, ...) -- CPU is running -- CPU_ReadMem(20 bytes @ 0x40020800) - Data: 05 A0 A0 00 00 00 00 00 0A A0 F0 00 05 A0 54 00 ...  returns 0x00 (0001ms, 0812ms total)
T1824 006:715 JLINK_ReadMem (0x40020814, 0x0004 Bytes, ...) -- CPU is running -- CPU_ReadMem(4 bytes @ 0x40020814) - Data: 00 00 00 00  returns 0x00 (0001ms, 0813ms total)
T1824 006:716 JLINK_ReadMem (0x4002081C, 0x0008 Bytes, ...) -- CPU is running -- CPU_ReadMem(8 bytes @ 0x4002081C) - Data: 00 00 00 00 00 00 00 33  returns 0x00 (0001ms, 0814ms total)
T1824 006:717 JLINK_ReadMem (0x40020824, 0x0004 Bytes, ...) -- CPU is running -- CPU_ReadMem(4 bytes @ 0x40020824) - Data: 00 88 00 00  returns 0x00 (0001ms, 0815ms total)
T15FC 006:719 JLINK_IsHalted()  returns FALSE (0000ms, 0815ms total)
T15FC 006:820 JLINK_IsHalted()  returns FALSE (0001ms, 0816ms total)
T15FC 006:922 JLINK_IsHalted()  returns FALSE (0000ms, 0815ms total)
T15FC 007:024 JLINK_IsHalted()  returns FALSE (0000ms, 0815ms total)
T15FC 007:125 JLINK_IsHalted()  returns FALSE (0000ms, 0815ms total)
T15FC 007:226 JLINK_ReadMemU32(0xE0001004, 0x0001 Items, ...) -- CPU is running -- CPU_ReadMem(4 bytes @ 0xE0001004) - Data: 23 D4 D5 26  returns 0x01 (0000ms, 0815ms total)
T1824 007:231 JLINK_ReadMem (0x40006400, 0x001C Bytes, ...) -- CPU is running -- CPU_ReadMem(28 bytes @ 0x40006400) - Data: 40 00 01 00 00 0E 00 00 03 03 00 1C 00 00 00 00 ...  returns 0x00 (0001ms, 0816ms total)
T1824 007:232 JLINK_ReadMem (0x4000641C, 0x0004 Bytes, ...) -- CPU is running -- CPU_ReadMem(4 bytes @ 0x4000641C) - Data: 02 00 38 00  returns 0x00 (0001ms, 0817ms total)
T1824 007:233 JLINK_ReadMem (0x40006580, 0x004C Bytes, ...) -- CPU is running -- CPU_ReadMem(76 bytes @ 0x40006580) - Data: 00 00 E0 3F E8 4A 7C 3B 00 00 00 00 00 00 00 00 ...  returns 0x00 (0001ms, 0818ms total)
T1824 007:234 JLINK_ReadMem (0x400065CC, 0x0004 Bytes, ...) -- CPU is running -- CPU_ReadMem(4 bytes @ 0x400065CC) - Data: CC 30 D1 57  returns 0x00 (0001ms, 0819ms total)
T1824 007:235 JLINK_ReadMem (0x40006600, 0x0004 Bytes, ...) -- CPU is running -- CPU_ReadMem(4 bytes @ 0x40006600) - Data: 00 0E 1C 2A  returns 0x00 (0001ms, 0820ms total)
T1824 007:236 JLINK_ReadMem (0x40006604, 0x0004 Bytes, ...) -- CPU is running -- CPU_ReadMem(4 bytes @ 0x40006604) - Data: 00 00 00 00  returns 0x00 (0001ms, 0821ms total)
T1824 007:237 JLINK_ReadMem (0x4000660C, 0x0004 Bytes, ...) -- CPU is running -- CPU_ReadMem(4 bytes @ 0x4000660C) - Data: 01 40 00 00  returns 0x00 (0001ms, 0822ms total)
T1824 007:238 JLINK_ReadMem (0x40006614, 0x0004 Bytes, ...) -- CPU is running -- CPU_ReadMem(4 bytes @ 0x40006614) - Data: 00 00 00 00  returns 0x00 (0000ms, 0822ms total)
T1824 007:238 JLINK_ReadMem (0x4000661C, 0x0004 Bytes, ...) -- CPU is running -- CPU_ReadMem(4 bytes @ 0x4000661C) - Data: 01 40 00 00  returns 0x00 (0001ms, 0823ms total)
T1824 007:239 JLINK_ReadMem (0x40006640, 0x00DC Bytes, ...) -- CPU is running -- CPU_ReadMem(220 bytes @ 0x40006640) - Data: 00 00 00 00 00 00 00 00 51 27 0E AB 94 91 FA 1F ...  returns 0x00 (0003ms, 0826ms total)
T1824 007:242 JLINK_ReadMem (0x4000671C, 0x0004 Bytes, ...) -- CPU is running -- CPU_ReadMem(4 bytes @ 0x4000671C) - Data: 35 ED 07 49  returns 0x00 (0001ms, 0827ms total)
T1824 007:251 JLINK_ReadMem (0x40004800, 0x0018 Bytes, ...) -- CPU is running -- CPU_ReadMem(24 bytes @ 0x40004800) - Data: C0 00 00 00 00 00 00 00 00 00 00 00 10 00 00 00 ...  returns 0x00 (0000ms, 0827ms total)
T1824 007:251 JLINK_ReadMem (0x40004818, 0x0004 Bytes, ...) -- CPU is running -- CPU_ReadMem(4 bytes @ 0x40004818) - Data: 00 00 00 00  returns 0x00 (0001ms, 0828ms total)
T1824 007:253 JLINK_ReadMem (0x40020800, 0x0014 Bytes, ...) -- CPU is running -- CPU_ReadMem(20 bytes @ 0x40020800) - Data: 05 A0 A0 00 00 00 00 00 0A A0 F0 00 05 A0 54 00 ...  returns 0x00 (0001ms, 0829ms total)
T1824 007:254 JLINK_ReadMem (0x40020814, 0x0004 Bytes, ...) -- CPU is running -- CPU_ReadMem(4 bytes @ 0x40020814) - Data: 00 00 00 00  returns 0x00 (0000ms, 0829ms total)
T1824 007:254 JLINK_ReadMem (0x4002081C, 0x0008 Bytes, ...) -- CPU is running -- CPU_ReadMem(8 bytes @ 0x4002081C) - Data: 00 00 00 00 00 00 00 33  returns 0x00 (0001ms, 0830ms total)
T1824 007:255 JLINK_ReadMem (0x40020824, 0x0004 Bytes, ...) -- CPU is running -- CPU_ReadMem(4 bytes @ 0x40020824) - Data: 00 88 00 00  returns 0x00 (0001ms, 0831ms total)
